
T32F8 000:119 SEGGER J-Link V6.00e Log File (0000ms, 0022ms total)
T32F8 000:119 DLL Compiled: Aug  4 2016 09:37:38 (0000ms, 0022ms total)
T32F8 000:119 Logging started @ 2020-03-23 22:59 (0000ms, 0022ms total)
T32F8 000:119 JLINK_SetWarnOutHandler(...) (0000ms, 0022ms total)
T32F8 000:119 JLINK_OpenEx(...)
Firmware: J-Link V9 compiled Aug  3 2016 18:50:44
Hardware: V9.40
S/N: 59401018
Feature(s): RDI, GDB, FlashDL, FlashBP, JFlash  returns O.K. (0019ms, 0041ms total)
T32F8 000:138 JLINK_SetErrorOutHandler(...) (0000ms, 0041ms total)
T32F8 000:138 JLINK_ExecCommand("ProjectFile = "D:\scriptiot\evm_publish\thirds\littlevgl_qml\ports\stm32\stm32f103-fire-arbitrary\Project\RVMDK£¨uv5£©\JLinkSettings.ini"", ...). Device "ARM7" selected.  returns 0x00 (0127ms, 0168ms total)
T32F8 000:265 JLINK_ExecCommand("Device = STM32F103ZE", ...). Device "STM32F103ZE" selected.  returns 0x00 (0001ms, 0169ms total)
T32F8 000:266 JLINK_ExecCommand("DisableConnectionTimeout", ...).   returns 0x01 (0000ms, 0169ms total)
T32F8 000:266 JLINK_GetHardwareVersion()  returns 0x16F30 (0000ms, 0169ms total)
T32F8 000:266 JLINK_GetDLLVersion()  returns 60005 (0000ms, 0169ms total)
T32F8 000:266 JLINK_GetFirmwareString(...) (0000ms, 0169ms total)
T32F8 000:266 JLINK_GetDLLVersion()  returns 60005 (0000ms, 0169ms total)
T32F8 000:266 JLINK_GetCompileDateTime() (0000ms, 0169ms total)
T32F8 000:266 JLINK_GetFirmwareString(...) (0000ms, 0169ms total)
T32F8 000:266 JLINK_GetHardwareVersion()  returns 0x16F30 (0000ms, 0169ms total)
T32F8 000:266 JLINK_TIF_Select(JLINKARM_TIF_JTAG)  returns 0x00 (0001ms, 0170ms total)
T32F8 000:267 JLINK_SetSpeed(10000) (0000ms, 0170ms total)
T32F8 000:267 JLINK_GetIdData(...) >0x2F8 JTAG>TotalIRLen = 9, IRPrint = 0x0011 >0x30 JTAG> >0x410 JTAG> >0x40 JTAG> >0x40 JTAG> >0x40 JTAG> >0x30 JTAG> >0x40 JTAG> >0x40 JTAG> >0x40 JTAG> >0x40 JTAG> >0x40 JTAG> >0x40 JTAG> >0x40 JTAG> >0x40 JTAG> >0x40 JTAG> >0x40 JTAG> >0x40 JTAG> >0x40 JTAG> >0x40 JTAG> >0x40 JTAG> >0x40 JTAG> >0x40 JTAG> >0x40 JTAG> >0x40 JTAG> >0x40 JTAG> >0x40 JTAG> >0x40 JTAG> >0x40 JTAG> >0x40 JTAG> >0x2F8 JTAG>TotalIRLen = 9, IRPrint = 0x0011 >0x30 JTAG> >0x410 JTAG>
 >0x70 JTAG> >0x50 JTAG> >0x40 JTAG> >0x50 JTAG>AP-IDR: 0x14770011, Type: AHB-AP >0x80 JTAG> >0x40 JTAG> >0x30 JTAG> >0x40 JTAG> >0x40 JTAG> >0x30 JTAG> >0x40 JTAG> >0x50 JTAG>Found Cortex-M3 r1p1, Little endian. -- CPU_ReadMem(4 bytes @ 0xE000EDF0) -- CPU_ReadMem(4 bytes @ 0xE0002000)FPUnit: 6 code (BP) slots and 2 literal slots -- CPU_ReadMem(4 bytes @ 0xE000EDFC) -- CPU_ReadMem(4 bytes @ 0xE0001000) -- CPU_WriteMem(4 bytes @ 0xE0001000) -- CPU_ReadMem(4 bytes @ 0xE000ED88)
 -- CPU_WriteMem(4 bytes @ 0xE000ED88) -- CPU_ReadMem(4 bytes @ 0xE000ED88) -- CPU_WriteMem(4 bytes @ 0xE000ED88)CoreSight components:ROMTbl 0 @ E00FF000 -- CPU_ReadMem(16 bytes @ 0xE00FF000) -- CPU_ReadMem(16 bytes @ 0xE000EFF0) -- CPU_ReadMem(16 bytes @ 0xE000EFE0)ROMTbl 0 [0]: FFF0F000, CID: B105E00D, PID: 001BB000 SCS -- CPU_ReadMem(16 bytes @ 0xE0001FF0) -- CPU_ReadMem(16 bytes @ 0xE0001FE0)ROMTbl 0 [1]: FFF02000, CID: B105E00D, PID: 001BB002 DWT -- CPU_ReadMem(16 bytes @ 0xE0002FF0)
 -- CPU_ReadMem(16 bytes @ 0xE0002FE0)ROMTbl 0 [2]: FFF03000, CID: B105E00D, PID: 000BB003 FPB -- CPU_ReadMem(16 bytes @ 0xE0000FF0) -- CPU_ReadMem(16 bytes @ 0xE0000FE0)ROMTbl 0 [3]: FFF01000, CID: B105E00D, PID: 001BB001 ITM -- CPU_ReadMem(16 bytes @ 0xE00FF010) -- CPU_ReadMem(16 bytes @ 0xE0040FF0) -- CPU_ReadMem(16 bytes @ 0xE0040FE0)ROMTbl 0 [4]: FFF41000, CID: B105900D, PID: 001BB923 TPIU-Lite -- CPU_ReadMem(16 bytes @ 0xE0041FF0) -- CPU_ReadMem(16 bytes @ 0xE0041FE0)
ROMTbl 0 [5]: FFF42000, CID: B105900D, PID: 101BB924 ETM-M3 ScanLen=9 NumDevices=2 aId[0]=0x3BA00477 aIrRead[0]=0 aScanLen[0]=0 aScanRead[0]=0 (0017ms, 0187ms total)
T32F8 000:284 JLINK_JTAG_GetDeviceID(DeviceIndex = 0)  returns 0x3BA00477 (0000ms, 0187ms total)
T32F8 000:284 JLINK_JTAG_GetDeviceInfo(DeviceIndex = 0)  returns 0x00 (0000ms, 0187ms total)
T32F8 000:284 JLINK_JTAG_GetDeviceID(DeviceIndex = 1)  returns 0x6414041 (0000ms, 0187ms total)
T32F8 000:284 JLINK_JTAG_GetDeviceInfo(DeviceIndex = 1)  returns 0x00 (0000ms, 0187ms total)
T32F8 000:284 JLINK_GetDLLVersion()  returns 60005 (0000ms, 0187ms total)
T32F8 000:284 JLINK_CORE_GetFound()  returns 0x30000FF (0000ms, 0187ms total)
T32F8 000:284 JLINK_GetDebugInfo(0x100) -- Value=0xE00FF003  returns 0x00 (0000ms, 0187ms total)
T32F8 000:284 JLINK_GetDebugInfo(0x100) -- Value=0xE00FF003  returns 0x00 (0000ms, 0187ms total)
T32F8 000:284 JLINK_GetDebugInfo(0x101) -- Value=0xE0041000  returns 0x00 (0000ms, 0187ms total)
T32F8 000:284 JLINK_GetDebugInfo(0x102) -- Value=0x00000000  returns 0x00 (0000ms, 0187ms total)
T32F8 000:284 JLINK_GetDebugInfo(0x103) -- Value=0xE0040000  returns 0x00 (0000ms, 0187ms total)
T32F8 000:284 JLINK_GetDebugInfo(0x104) -- Value=0xE0000000  returns 0x00 (0000ms, 0187ms total)
T32F8 000:284 JLINK_GetDebugInfo(0x105) -- Value=0xE0001000  returns 0x00 (0000ms, 0187ms total)
T32F8 000:284 JLINK_GetDebugInfo(0x106) -- Value=0xE0002000  returns 0x00 (0000ms, 0187ms total)
T32F8 000:284 JLINK_GetDebugInfo(0x107) -- Value=0xE000E000  returns 0x00 (0000ms, 0187ms total)
T32F8 000:284 JLINK_GetDebugInfo(0x10C) -- Value=0xE000EDF0  returns 0x00 (0000ms, 0187ms total)
T32F8 000:284 JLINK_ReadMemU32(0xE000ED00, 0x0001 Items, ...) -- CPU is running -- CPU_ReadMem(4 bytes @ 0xE000ED00) - Data: 31 C2 1F 41  returns 0x01 (0000ms, 0187ms total)
T32F8 000:284 JLINK_SetResetType(JLINKARM_RESET_TYPE_NORMAL)  returns JLINKARM_RESET_TYPE_NORMAL (0000ms, 0187ms total)
T32F8 000:284 JLINK_Reset() -- CPU is running -- CPU_WriteMem(4 bytes @ 0xE000EDF0) -- CPU is running -- CPU_WriteMem(4 bytes @ 0xE000EDFC) -- CPU is running -- CPU_WriteMem(4 bytes @ 0xE000ED0C) -- CPU is running -- CPU_ReadMem(4 bytes @ 0xE000EDF0) -- CPU is running -- CPU_ReadMem(4 bytes @ 0xE000EDF0) -- CPU is running -- CPU_WriteMem(4 bytes @ 0xE000EDF0) -- CPU is running -- CPU_WriteMem(4 bytes @ 0xE000EDFC) -- CPU is running -- CPU_ReadMem(4 bytes @ 0xE000EDF0) >0x80 JTAG> >0x40 JTAG> >0x30 JTAG>
 >0x40 JTAG> >0x50 JTAG> >0x40 JTAG> -- CPU_WriteMem(4 bytes @ 0xE000EDFC) -- CPU_WriteMem(4 bytes @ 0xE0001028) -- CPU_WriteMem(4 bytes @ 0xE0001038) -- CPU_WriteMem(4 bytes @ 0xE0001048) -- CPU_WriteMem(4 bytes @ 0xE0001058) -- CPU_WriteMem(4 bytes @ 0xE0002000) -- CPU_ReadMem(4 bytes @ 0xE000EDFC) -- CPU_ReadMem(4 bytes @ 0xE0001000) (0022ms, 0209ms total)
T32F8 000:306 JLINK_ReadReg(R15 (PC))  returns 0x08000144 (0000ms, 0209ms total)
T32F8 000:306 JLINK_ReadReg(XPSR)  returns 0x01000000 (0000ms, 0209ms total)
T32F8 000:306 JLINK_Halt()  returns 0x00 (0001ms, 0210ms total)
T32F8 000:307 JLINK_IsHalted()  returns TRUE (0000ms, 0210ms total)
T32F8 000:307 JLINK_ReadMemU32(0xE000EDF0, 0x0001 Items, ...) -- CPU_ReadMem(4 bytes @ 0xE000EDF0) - Data: 03 00 03 00  returns 0x01 (0001ms, 0211ms total)
T32F8 000:308 JLINK_WriteU32(0xE000EDF0, 0xA05F0003) -- CPU_WriteMem(4 bytes @ 0xE000EDF0)  returns 0x00 (0000ms, 0211ms total)
T32F8 000:308 JLINK_WriteU32(0xE000EDFC, 0x01000000) -- CPU_WriteMem(4 bytes @ 0xE000EDFC)  returns 0x00 (0001ms, 0212ms total)
T32F8 000:309 JLINK_GetHWStatus(...)  returns 0x00 (0000ms, 0212ms total)
T32F8 000:310 JLINK_GetNumBPUnits(Type = 0xFFFFFF00)  returns 0x06 (0000ms, 0212ms total)
T32F8 000:310 JLINK_GetNumBPUnits(Type = 0xF0)  returns 0x2000 (0000ms, 0212ms total)
T32F8 000:310 JLINK_GetNumWPUnits()  returns 0x04 (0000ms, 0212ms total)
T32F8 000:310 JLINK_GetSpeed()  returns 0x2710 (0000ms, 0212ms total)
T32F8 000:310 JLINK_ReadMemU32(0xE000E004, 0x0001 Items, ...) -- CPU_ReadMem(4 bytes @ 0xE000E004) - Data: 01 00 00 00  returns 0x01 (0001ms, 0213ms total)
T32F8 000:311 JLINK_ReadMemU32(0xE000E004, 0x0001 Items, ...) -- CPU_ReadMem(4 bytes @ 0xE000E004) - Data: 01 00 00 00  returns 0x01 (0000ms, 0213ms total)
T32F8 000:311 JLINK_WriteMem(0xE0001000, 0x001C Bytes, ...) - Data: 01 00 00 00 00 00 00 00 00 00 00 00 00 00 00 00 ... -- CPU_WriteMem(28 bytes @ 0xE0001000)  returns 0x1C (0002ms, 0215ms total)
T32F8 000:314 JLINK_ReadMem (0xE0001000, 0x001C Bytes, ...) -- CPU_ReadMem(28 bytes @ 0xE0001000) - Data: 01 00 00 40 00 00 00 00 00 00 00 00 00 00 00 00 ...  returns 0x00 (0000ms, 0215ms total)
T32F8 000:314 JLINK_ReadReg(R15 (PC))  returns 0x08000144 (0001ms, 0216ms total)
T32F8 000:315 JLINK_ReadReg(XPSR)  returns 0x01000000 (0000ms, 0216ms total)
T32F8 000:576 JLINK_SetResetType(JLINKARM_RESET_TYPE_NORMAL)  returns JLINKARM_RESET_TYPE_NORMAL (0000ms, 0216ms total)
T32F8 000:576 JLINK_Reset() -- CPU_WriteMem(4 bytes @ 0xE000EDF0) -- CPU_WriteMem(4 bytes @ 0xE000EDFC) -- CPU_WriteMem(4 bytes @ 0xE000ED0C) -- CPU_ReadMem(4 bytes @ 0xE000EDF0) -- CPU_ReadMem(4 bytes @ 0xE000EDF0) -- CPU_WriteMem(4 bytes @ 0xE000EDF0) -- CPU_WriteMem(4 bytes @ 0xE000EDFC) -- CPU is running -- CPU_ReadMem(4 bytes @ 0xE000EDF0) >0x80 JTAG> >0x40 JTAG> >0x30 JTAG> >0x40 JTAG> >0x50 JTAG> >0x40 JTAG> -- CPU_WriteMem(4 bytes @ 0xE000EDFC) -- CPU_WriteMem(4 bytes @ 0xE0001028)
 -- CPU_WriteMem(4 bytes @ 0xE0001038) -- CPU_WriteMem(4 bytes @ 0xE0001048) -- CPU_WriteMem(4 bytes @ 0xE0001058) -- CPU_WriteMem(4 bytes @ 0xE0002000) -- CPU_ReadMem(4 bytes @ 0xE000EDFC) -- CPU_ReadMem(4 bytes @ 0xE0001000) (0020ms, 0236ms total)
T32F8 000:596 JLINK_ReadReg(R15 (PC))  returns 0x08000144 (0000ms, 0236ms total)
T32F8 000:596 JLINK_ReadReg(XPSR)  returns 0x01000000 (0000ms, 0236ms total)
T32F8 000:890 JLINK_ReadMem (0x08000130, 0x003C Bytes, ...) -- CPU_ReadMem(128 bytes @ 0x08000100) -- Updating C cache (128 bytes @ 0x08000100) -- Read from C cache (60 bytes @ 0x08000130) - Data: DF F8 0C D0 26 F0 6C FB 00 48 00 47 C1 46 00 08 ...  returns 0x00 (0001ms, 0237ms total)
T4A44 003:567 JLINK_SetBPEx(Addr = 0x080046C0, Type = 0xFFFFFFF2)  returns 0x00000001 (0000ms, 0237ms total)
T4A44 003:567 JLINK_SetBPEx(Addr = 0x08004778, Type = 0xFFFFFFF2)  returns 0x00000002 (0000ms, 0237ms total)
T4A44 003:567 JLINK_Go() -- CPU_ReadMem(4 bytes @ 0xE0001000) -- CPU_WriteMem(4 bytes @ 0xE0002008) -- CPU_WriteMem(4 bytes @ 0xE000200C) -- CPU_WriteMem(4 bytes @ 0xE0002010) -- CPU_WriteMem(4 bytes @ 0xE0002014) -- CPU_WriteMem(4 bytes @ 0xE0002018) -- CPU_WriteMem(4 bytes @ 0xE000201C) -- CPU_WriteMem(4 bytes @ 0xE0001004) (0002ms, 0239ms total)
T4A44 003:670 JLINK_IsHalted()  returns TRUE (0001ms, 0240ms total)
T4A44 003:671 JLINK_Halt()  returns 0x00 (0000ms, 0239ms total)
T4A44 003:671 JLINK_IsHalted()  returns TRUE (0000ms, 0239ms total)
T4A44 003:671 JLINK_IsHalted()  returns TRUE (0000ms, 0239ms total)
T4A44 003:671 JLINK_IsHalted()  returns TRUE (0000ms, 0239ms total)
T4A44 003:671 JLINK_ReadReg(R15 (PC))  returns 0x080046C0 (0000ms, 0239ms total)
T4A44 003:671 JLINK_ReadReg(XPSR)  returns 0x61000000 (0000ms, 0239ms total)
T4A44 003:671 JLINK_ClrBPEx(BPHandle = 0x00000001)  returns 0x00 (0000ms, 0239ms total)
T4A44 003:671 JLINK_ClrBPEx(BPHandle = 0x00000002)  returns 0x00 (0000ms, 0239ms total)
T4A44 003:671 JLINK_ReadMemU32(0xE000ED30, 0x0001 Items, ...) -- CPU_ReadMem(4 bytes @ 0xE000ED30) - Data: 02 00 00 00  returns 0x01 (0001ms, 0240ms total)
T4A44 003:672 JLINK_ReadMemU32(0xE0001028, 0x0001 Items, ...) -- CPU_ReadMem(4 bytes @ 0xE0001028) - Data: 00 00 00 00  returns 0x01 (0000ms, 0240ms total)
T4A44 003:672 JLINK_ReadMemU32(0xE0001038, 0x0001 Items, ...) -- CPU_ReadMem(4 bytes @ 0xE0001038) - Data: 00 02 00 00  returns 0x01 (0000ms, 0240ms total)
T4A44 003:672 JLINK_ReadMemU32(0xE0001048, 0x0001 Items, ...) -- CPU_ReadMem(4 bytes @ 0xE0001048) - Data: 00 00 00 00  returns 0x01 (0001ms, 0241ms total)
T4A44 003:673 JLINK_ReadMemU32(0xE0001058, 0x0001 Items, ...) -- CPU_ReadMem(4 bytes @ 0xE0001058) - Data: 00 00 00 00  returns 0x01 (0000ms, 0241ms total)
T4A44 003:673 JLINK_ReadReg(R0)  returns 0x080046C1 (0001ms, 0242ms total)
T4A44 003:674 JLINK_ReadReg(R1)  returns 0x680790E8 (0000ms, 0242ms total)
T4A44 003:674 JLINK_ReadReg(R2)  returns 0x00000000 (0000ms, 0242ms total)
T4A44 003:674 JLINK_ReadReg(R3)  returns 0x08028BC1 (0000ms, 0242ms total)
T4A44 003:674 JLINK_ReadReg(R4)  returns 0x0805BB4C (0000ms, 0242ms total)
T4A44 003:674 JLINK_ReadReg(R5)  returns 0x0805BB4C (0000ms, 0242ms total)
T4A44 003:674 JLINK_ReadReg(R6)  returns 0x00000000 (0000ms, 0242ms total)
T4A44 003:674 JLINK_ReadReg(R7)  returns 0x00000000 (0000ms, 0242ms total)
T4A44 003:674 JLINK_ReadReg(R8)  returns 0x00000000 (0000ms, 0242ms total)
T4A44 003:674 JLINK_ReadReg(R9)  returns 0x20000160 (0000ms, 0242ms total)
T4A44 003:674 JLINK_ReadReg(R10)  returns 0x00000000 (0000ms, 0242ms total)
T4A44 003:674 JLINK_ReadReg(R11)  returns 0x00000000 (0000ms, 0242ms total)
T4A44 003:674 JLINK_ReadReg(R12)  returns 0x680006CC (0000ms, 0242ms total)
T4A44 003:674 JLINK_ReadReg(R13 (SP))  returns 0x20002000 (0000ms, 0242ms total)
T4A44 003:674 JLINK_ReadReg(R14)  returns 0x0802682D (0000ms, 0242ms total)
T4A44 003:674 JLINK_ReadReg(R15 (PC))  returns 0x080046C0 (0000ms, 0242ms total)
T4A44 003:674 JLINK_ReadReg(XPSR)  returns 0x61000000 (0000ms, 0242ms total)
T4A44 003:674 JLINK_ReadReg(MSP)  returns 0x20002000 (0000ms, 0242ms total)
T4A44 003:674 JLINK_ReadReg(PSP)  returns 0x20001000 (0000ms, 0242ms total)
T4A44 003:674 JLINK_ReadReg(CFBP)  returns 0x00000000 (0001ms, 0243ms total)
T32F8 003:685 JLINK_ReadMem (0x080046BE, 0x0002 Bytes, ...) -- CPU_ReadMem(64 bytes @ 0x08004680) -- Updating C cache (64 bytes @ 0x08004680) -- Read from C cache (2 bytes @ 0x080046BE) - Data: 10 BD  returns 0x00 (0000ms, 0243ms total)
T32F8 003:685 JLINK_ReadMem (0x080046C0, 0x003C Bytes, ...) -- CPU_ReadMem(64 bytes @ 0x080046C0) -- Updating C cache (64 bytes @ 0x080046C0) -- Read from C cache (60 bytes @ 0x080046C0) - Data: 7C B5 01 F0 21 FA 01 F0 A8 FE 00 F0 B7 F8 03 F0 ...  returns 0x00 (0001ms, 0244ms total)
T4A44 005:114 JLINK_SetBPEx(Addr = 0x08004778, Type = 0xFFFFFFF2)  returns 0x00000003 (0000ms, 0244ms total)
T4A44 005:114 JLINK_Go() -- CPU_ReadMem(4 bytes @ 0xE0001000) -- CPU_WriteMem(4 bytes @ 0xE0002008) -- CPU_WriteMem(4 bytes @ 0xE000200C) (0001ms, 0245ms total)
T4A44 005:215 JLINK_IsHalted()  returns TRUE (0001ms, 0246ms total)
T4A44 005:216 JLINK_Halt()  returns 0x00 (0000ms, 0245ms total)
T4A44 005:216 JLINK_IsHalted()  returns TRUE (0000ms, 0245ms total)
T4A44 005:216 JLINK_IsHalted()  returns TRUE (0000ms, 0245ms total)
T4A44 005:216 JLINK_IsHalted()  returns TRUE (0000ms, 0245ms total)
T4A44 005:216 JLINK_ReadReg(R15 (PC))  returns 0x08004778 (0000ms, 0245ms total)
T4A44 005:216 JLINK_ReadReg(XPSR)  returns 0x61000000 (0000ms, 0245ms total)
T4A44 005:216 JLINK_ClrBPEx(BPHandle = 0x00000003)  returns 0x00 (0000ms, 0245ms total)
T4A44 005:216 JLINK_ReadMemU32(0xE000ED30, 0x0001 Items, ...) -- CPU_ReadMem(4 bytes @ 0xE000ED30) - Data: 02 00 00 00  returns 0x01 (0001ms, 0246ms total)
T4A44 005:217 JLINK_ReadMemU32(0xE0001028, 0x0001 Items, ...) -- CPU_ReadMem(4 bytes @ 0xE0001028) - Data: 00 00 00 00  returns 0x01 (0000ms, 0246ms total)
T4A44 005:217 JLINK_ReadMemU32(0xE0001038, 0x0001 Items, ...) -- CPU_ReadMem(4 bytes @ 0xE0001038) - Data: 00 02 00 00  returns 0x01 (0000ms, 0246ms total)
T4A44 005:217 JLINK_ReadMemU32(0xE0001048, 0x0001 Items, ...) -- CPU_ReadMem(4 bytes @ 0xE0001048) - Data: 00 00 00 00  returns 0x01 (0001ms, 0247ms total)
T4A44 005:218 JLINK_ReadMemU32(0xE0001058, 0x0001 Items, ...) -- CPU_ReadMem(4 bytes @ 0xE0001058) - Data: 00 00 00 00  returns 0x01 (0000ms, 0247ms total)
T4A44 005:218 JLINK_ReadReg(R0)  returns 0x00000000 (0001ms, 0248ms total)
T4A44 005:219 JLINK_ReadReg(R1)  returns 0x080046B3 (0000ms, 0248ms total)
T4A44 005:219 JLINK_ReadReg(R2)  returns 0xFFF50000 (0000ms, 0248ms total)
T4A44 005:219 JLINK_ReadReg(R3)  returns 0x68030C40 (0000ms, 0248ms total)
T4A44 005:219 JLINK_ReadReg(R4)  returns 0x00000000 (0000ms, 0248ms total)
T4A44 005:219 JLINK_ReadReg(R5)  returns 0x680190F0 (0000ms, 0248ms total)
T4A44 005:219 JLINK_ReadReg(R6)  returns 0x00000000 (0000ms, 0248ms total)
T4A44 005:219 JLINK_ReadReg(R7)  returns 0x00000000 (0000ms, 0248ms total)
T4A44 005:219 JLINK_ReadReg(R8)  returns 0x00000000 (0000ms, 0248ms total)
T4A44 005:219 JLINK_ReadReg(R9)  returns 0x20000160 (0000ms, 0248ms total)
T4A44 005:219 JLINK_ReadReg(R10)  returns 0x00000000 (0000ms, 0248ms total)
T4A44 005:219 JLINK_ReadReg(R11)  returns 0x00000000 (0000ms, 0248ms total)
T4A44 005:219 JLINK_ReadReg(R12)  returns 0x00000032 (0000ms, 0248ms total)
T4A44 005:219 JLINK_ReadReg(R13 (SP))  returns 0x20001FE8 (0000ms, 0248ms total)
T4A44 005:219 JLINK_ReadReg(R14)  returns 0x080327A3 (0000ms, 0248ms total)
T4A44 005:219 JLINK_ReadReg(R15 (PC))  returns 0x08004778 (0000ms, 0248ms total)
T4A44 005:219 JLINK_ReadReg(XPSR)  returns 0x61000000 (0000ms, 0248ms total)
T4A44 005:219 JLINK_ReadReg(MSP)  returns 0x20001FE8 (0000ms, 0248ms total)
T4A44 005:219 JLINK_ReadReg(PSP)  returns 0x20001000 (0000ms, 0248ms total)
T4A44 005:219 JLINK_ReadReg(CFBP)  returns 0x00000000 (0000ms, 0248ms total)
T32F8 005:226 JLINK_ReadMem (0x08004776, 0x0002 Bytes, ...) -- CPU_ReadMem(64 bytes @ 0x08004740) -- Updating C cache (64 bytes @ 0x08004740) -- Read from C cache (2 bytes @ 0x08004776) - Data: 7C BD  returns 0x00 (0001ms, 0249ms total)
T32F8 005:227 JLINK_ReadMem (0x08004778, 0x003C Bytes, ...) -- CPU_ReadMem(64 bytes @ 0x08004780) -- Updating C cache (64 bytes @ 0x08004780) -- Read from C cache (60 bytes @ 0x08004778) - Data: 05 21 28 46 2A F0 66 FA 28 78 20 B1 28 46 2C F0 ...  returns 0x00 (0002ms, 0251ms total)
T4A44 006:928 JLINK_Step() -- Read from C cache (2 bytes @ 0x08004778) -- CPU_ReadMem(4 bytes @ 0xE000ED18) -- CPU_WriteMem(4 bytes @ 0xE000ED18) -- CPU_ReadMem(4 bytes @ 0xE000ED18) -- CPU_WriteMem(4 bytes @ 0xE000ED18) -- CPU_ReadMem(4 bytes @ 0xE0001004) -- Simulated  returns 0x00 (0002ms, 0253ms total)
T4A44 006:930 JLINK_ReadReg(R15 (PC))  returns 0x0800477A (0000ms, 0253ms total)
T4A44 006:930 JLINK_ReadReg(XPSR)  returns 0x21000000 (0000ms, 0253ms total)
T4A44 006:930 JLINK_Step() -- Read from C cache (2 bytes @ 0x0800477A) -- Simulated  returns 0x00 (0000ms, 0253ms total)
T4A44 006:930 JLINK_ReadReg(R15 (PC))  returns 0x0800477C (0000ms, 0253ms total)
T4A44 006:930 JLINK_ReadReg(XPSR)  returns 0x21000000 (0000ms, 0253ms total)
T4A44 006:930 JLINK_Step() -- Read from C cache (2 bytes @ 0x0800477C) -- Read from C cache (2 bytes @ 0x0800477E) -- Simulated  returns 0x00 (0000ms, 0253ms total)
T4A44 006:930 JLINK_ReadReg(R15 (PC))  returns 0x0802EC4C (0000ms, 0253ms total)
T4A44 006:930 JLINK_ReadReg(XPSR)  returns 0x21000000 (0000ms, 0253ms total)
T4A44 006:930 JLINK_Step() -- CPU_ReadMem(64 bytes @ 0x0802EC40) -- Updating C cache (64 bytes @ 0x0802EC40) -- Read from C cache (2 bytes @ 0x0802EC4C) -- Read from C cache (2 bytes @ 0x0802EC4E) -- Not simulated -- CPU_WriteMem(4 bytes @ 0xE0002008) -- CPU_WriteMem(4 bytes @ 0xE0001004)  returns 0x00 (0003ms, 0256ms total)
T4A44 006:933 JLINK_ReadReg(R15 (PC))  returns 0x0802EC50 (0000ms, 0256ms total)
T4A44 006:933 JLINK_ReadReg(XPSR)  returns 0x21000000 (0000ms, 0256ms total)
T4A44 006:933 JLINK_Step() -- CPU_ReadMem(64 bytes @ 0x0802EC40) -- Updating C cache (64 bytes @ 0x0802EC40) -- Read from C cache (2 bytes @ 0x0802EC50) -- CPU_ReadMem(4 bytes @ 0xE0001004) -- Simulated  returns 0x00 (0001ms, 0257ms total)
T4A44 006:934 JLINK_ReadReg(R15 (PC))  returns 0x0802EC52 (0000ms, 0257ms total)
T4A44 006:934 JLINK_ReadReg(XPSR)  returns 0x21000000 (0000ms, 0257ms total)
T4A44 006:934 JLINK_Step() -- Read from C cache (2 bytes @ 0x0802EC52) -- Simulated  returns 0x00 (0000ms, 0257ms total)
T4A44 006:934 JLINK_ReadReg(R15 (PC))  returns 0x0802EC54 (0000ms, 0257ms total)
T4A44 006:934 JLINK_ReadReg(XPSR)  returns 0x21000000 (0000ms, 0257ms total)
T4A44 006:934 JLINK_Step() -- Read from C cache (2 bytes @ 0x0802EC54) -- Simulated  returns 0x00 (0000ms, 0257ms total)
T4A44 006:934 JLINK_ReadReg(R15 (PC))  returns 0x0802EC56 (0000ms, 0257ms total)
T4A44 006:934 JLINK_ReadReg(XPSR)  returns 0x21000000 (0000ms, 0257ms total)
T4A44 006:934 JLINK_SetBPEx(Addr = 0x08004780, Type = 0xFFFFFFF2)  returns 0x00000004 (0000ms, 0257ms total)
T4A44 006:934 JLINK_SetBPEx(Addr = 0x08004778, Type = 0xFFFFFFF2)  returns 0x00000005 (0000ms, 0257ms total)
T4A44 006:934 JLINK_Go() -- CPU_ReadMem(4 bytes @ 0xE0001000) -- CPU_WriteMem(4 bytes @ 0xE0002008) -- CPU_WriteMem(4 bytes @ 0xE000200C) -- CPU_WriteMem(4 bytes @ 0xE0001004) (0002ms, 0259ms total)
T4A44 007:038 JLINK_IsHalted()  returns TRUE (0001ms, 0260ms total)
T4A44 007:040 JLINK_Halt()  returns 0x00 (0000ms, 0259ms total)
T4A44 007:040 JLINK_IsHalted()  returns TRUE (0000ms, 0259ms total)
T4A44 007:040 JLINK_IsHalted()  returns TRUE (0000ms, 0259ms total)
T4A44 007:040 JLINK_IsHalted()  returns TRUE (0000ms, 0259ms total)
T4A44 007:040 JLINK_ReadReg(R15 (PC))  returns 0x08004780 (0000ms, 0259ms total)
T4A44 007:040 JLINK_ReadReg(XPSR)  returns 0x61000000 (0001ms, 0260ms total)
T4A44 007:041 JLINK_ClrBPEx(BPHandle = 0x00000004)  returns 0x00 (0000ms, 0260ms total)
T4A44 007:041 JLINK_ClrBPEx(BPHandle = 0x00000005)  returns 0x00 (0000ms, 0260ms total)
T4A44 007:041 JLINK_ReadMemU32(0xE000ED30, 0x0001 Items, ...) -- CPU_ReadMem(4 bytes @ 0xE000ED30) - Data: 02 00 00 00  returns 0x01 (0001ms, 0261ms total)
T4A44 007:042 JLINK_ReadMemU32(0xE0001028, 0x0001 Items, ...) -- CPU_ReadMem(4 bytes @ 0xE0001028) - Data: 00 00 00 00  returns 0x01 (0000ms, 0261ms total)
T4A44 007:042 JLINK_ReadMemU32(0xE0001038, 0x0001 Items, ...) -- CPU_ReadMem(4 bytes @ 0xE0001038) - Data: 00 02 00 00  returns 0x01 (0001ms, 0262ms total)
T4A44 007:043 JLINK_ReadMemU32(0xE0001048, 0x0001 Items, ...) -- CPU_ReadMem(4 bytes @ 0xE0001048) - Data: 00 00 00 00  returns 0x01 (0001ms, 0263ms total)
T4A44 007:044 JLINK_ReadMemU32(0xE0001058, 0x0001 Items, ...) -- CPU_ReadMem(4 bytes @ 0xE0001058) - Data: 00 00 00 00  returns 0x01 (0001ms, 0264ms total)
T4A44 007:046 JLINK_ReadReg(R0)  returns 0x00000000 (0000ms, 0264ms total)
T4A44 007:046 JLINK_ReadReg(R1)  returns 0x680311CC (0001ms, 0265ms total)
T4A44 007:047 JLINK_ReadReg(R2)  returns 0x00000058 (0000ms, 0265ms total)
T4A44 007:047 JLINK_ReadReg(R3)  returns 0x000005E0 (0000ms, 0265ms total)
T4A44 007:047 JLINK_ReadReg(R4)  returns 0x00000000 (0000ms, 0265ms total)
T4A44 007:047 JLINK_ReadReg(R5)  returns 0x680190F0 (0000ms, 0265ms total)
T4A44 007:047 JLINK_ReadReg(R6)  returns 0x00000000 (0001ms, 0266ms total)
T4A44 007:048 JLINK_ReadReg(R7)  returns 0x00000000 (0000ms, 0266ms total)
T4A44 007:048 JLINK_ReadReg(R8)  returns 0x00000000 (0000ms, 0266ms total)
T4A44 007:048 JLINK_ReadReg(R9)  returns 0x20000160 (0000ms, 0266ms total)
T4A44 007:048 JLINK_ReadReg(R10)  returns 0x00000000 (0000ms, 0266ms total)
T4A44 007:048 JLINK_ReadReg(R11)  returns 0x00000000 (0000ms, 0266ms total)
T4A44 007:048 JLINK_ReadReg(R12)  returns 0x00000032 (0000ms, 0266ms total)
T4A44 007:049 JLINK_ReadReg(R13 (SP))  returns 0x20001FE8 (0000ms, 0267ms total)
T4A44 007:049 JLINK_ReadReg(R14)  returns 0x080046BF (0000ms, 0267ms total)
T4A44 007:049 JLINK_ReadReg(R15 (PC))  returns 0x08004780 (0000ms, 0267ms total)
T4A44 007:049 JLINK_ReadReg(XPSR)  returns 0x61000000 (0000ms, 0267ms total)
T4A44 007:049 JLINK_ReadReg(MSP)  returns 0x20001FE8 (0000ms, 0267ms total)
T4A44 007:049 JLINK_ReadReg(PSP)  returns 0x20001000 (0000ms, 0267ms total)
T4A44 007:049 JLINK_ReadReg(CFBP)  returns 0x00000000 (0000ms, 0267ms total)
T32F8 007:062 JLINK_ReadMem (0x08004778, 0x003C Bytes, ...) -- CPU_ReadMem(128 bytes @ 0x08004740) -- Updating C cache (128 bytes @ 0x08004740) -- Read from C cache (60 bytes @ 0x08004778) - Data: 05 21 28 46 2A F0 66 FA 28 78 20 B1 28 46 2C F0 ...  returns 0x00 (0001ms, 0268ms total)
T4A44 007:932 JLINK_Step() -- Read from C cache (2 bytes @ 0x08004780) -- CPU_ReadMem(4 bytes @ 0xE0001004) -- Not simulated -- CPU_WriteMem(4 bytes @ 0xE0002008) -- CPU_WriteMem(4 bytes @ 0xE000200C)  returns 0x00 (0004ms, 0272ms total)
T4A44 007:936 JLINK_ReadReg(R15 (PC))  returns 0x08004782 (0000ms, 0272ms total)
T4A44 007:936 JLINK_ReadReg(XPSR)  returns 0x61000000 (0001ms, 0273ms total)
T4A44 007:937 JLINK_Step() -- CPU_ReadMem(64 bytes @ 0x08004780) -- Updating C cache (64 bytes @ 0x08004780) -- Read from C cache (2 bytes @ 0x08004782) -- CPU_ReadMem(4 bytes @ 0xE0001004) -- Simulated  returns 0x00 (0001ms, 0274ms total)
T4A44 007:938 JLINK_ReadReg(R15 (PC))  returns 0x0800478E (0000ms, 0274ms total)
T4A44 007:938 JLINK_ReadReg(XPSR)  returns 0x61000000 (0000ms, 0274ms total)
T4A44 007:939 JLINK_ReadReg(R0)  returns 0x00000000 (0000ms, 0274ms total)
T4A44 007:939 JLINK_ReadReg(R1)  returns 0x680311CC (0000ms, 0274ms total)
T4A44 007:939 JLINK_ReadReg(R2)  returns 0x00000058 (0000ms, 0274ms total)
T4A44 007:939 JLINK_ReadReg(R3)  returns 0x000005E0 (0000ms, 0274ms total)
T4A44 007:939 JLINK_ReadReg(R4)  returns 0x00000000 (0000ms, 0274ms total)
T4A44 007:939 JLINK_ReadReg(R5)  returns 0x680190F0 (0001ms, 0275ms total)
T4A44 007:940 JLINK_ReadReg(R6)  returns 0x00000000 (0000ms, 0275ms total)
T4A44 007:940 JLINK_ReadReg(R7)  returns 0x00000000 (0000ms, 0275ms total)
T4A44 007:940 JLINK_ReadReg(R8)  returns 0x00000000 (0000ms, 0275ms total)
T4A44 007:940 JLINK_ReadReg(R9)  returns 0x20000160 (0000ms, 0275ms total)
T4A44 007:940 JLINK_ReadReg(R10)  returns 0x00000000 (0000ms, 0275ms total)
T4A44 007:940 JLINK_ReadReg(R11)  returns 0x00000000 (0000ms, 0275ms total)
T4A44 007:940 JLINK_ReadReg(R12)  returns 0x00000032 (0000ms, 0275ms total)
T4A44 007:940 JLINK_ReadReg(R13 (SP))  returns 0x20001FE8 (0000ms, 0275ms total)
T4A44 007:940 JLINK_ReadReg(R14)  returns 0x080046BF (0000ms, 0275ms total)
T4A44 007:940 JLINK_ReadReg(R15 (PC))  returns 0x0800478E (0001ms, 0276ms total)
T4A44 007:941 JLINK_ReadReg(XPSR)  returns 0x61000000 (0000ms, 0276ms total)
T4A44 007:941 JLINK_ReadReg(MSP)  returns 0x20001FE8 (0000ms, 0276ms total)
T4A44 007:941 JLINK_ReadReg(PSP)  returns 0x20001000 (0000ms, 0276ms total)
T4A44 007:941 JLINK_ReadReg(CFBP)  returns 0x00000000 (0000ms, 0276ms total)
T32F8 007:953 JLINK_ReadMem (0x08004780, 0x003C Bytes, ...) -- Read from C cache (60 bytes @ 0x08004780) - Data: 28 78 20 B1 28 46 2C F0 E5 FC 20 46 F3 E7 28 46 ...  returns 0x00 (0000ms, 0276ms total)
T4A44 010:570 JLINK_Step() -- Read from C cache (2 bytes @ 0x0800478E) -- Simulated  returns 0x00 (0001ms, 0277ms total)
T4A44 010:571 JLINK_ReadReg(R15 (PC))  returns 0x08004790 (0000ms, 0277ms total)
T4A44 010:571 JLINK_ReadReg(XPSR)  returns 0x61000000 (0000ms, 0277ms total)
T4A44 010:573 JLINK_Step() -- Read from C cache (2 bytes @ 0x08004790) -- Read from C cache (2 bytes @ 0x08004792) -- Simulated  returns 0x00 (0000ms, 0277ms total)
T4A44 010:573 JLINK_ReadReg(R15 (PC))  returns 0x08008FD8 (0001ms, 0278ms total)
T4A44 010:574 JLINK_ReadReg(XPSR)  returns 0x61000000 (0000ms, 0278ms total)
T4A44 010:575 JLINK_ReadReg(R0)  returns 0x680190F0 (0000ms, 0278ms total)
T4A44 010:576 JLINK_ReadReg(R1)  returns 0x680311CC (0000ms, 0278ms total)
T4A44 010:576 JLINK_ReadReg(R2)  returns 0x00000058 (0000ms, 0278ms total)
T4A44 010:576 JLINK_ReadReg(R3)  returns 0x000005E0 (0000ms, 0278ms total)
T4A44 010:576 JLINK_ReadReg(R4)  returns 0x00000000 (0000ms, 0278ms total)
T4A44 010:576 JLINK_ReadReg(R5)  returns 0x680190F0 (0001ms, 0279ms total)
T4A44 010:577 JLINK_ReadReg(R6)  returns 0x00000000 (0000ms, 0279ms total)
T4A44 010:577 JLINK_ReadReg(R7)  returns 0x00000000 (0000ms, 0279ms total)
T4A44 010:577 JLINK_ReadReg(R8)  returns 0x00000000 (0000ms, 0279ms total)
T4A44 010:577 JLINK_ReadReg(R9)  returns 0x20000160 (0000ms, 0279ms total)
T4A44 010:578 JLINK_ReadReg(R10)  returns 0x00000000 (0000ms, 0280ms total)
T4A44 010:578 JLINK_ReadReg(R11)  returns 0x00000000 (0000ms, 0280ms total)
T4A44 010:578 JLINK_ReadReg(R12)  returns 0x00000032 (0000ms, 0280ms total)
T4A44 010:578 JLINK_ReadReg(R13 (SP))  returns 0x20001FE8 (0000ms, 0280ms total)
T4A44 010:578 JLINK_ReadReg(R14)  returns 0x08004795 (0001ms, 0281ms total)
T4A44 010:579 JLINK_ReadReg(R15 (PC))  returns 0x08008FD8 (0000ms, 0281ms total)
T4A44 010:579 JLINK_ReadReg(XPSR)  returns 0x61000000 (0000ms, 0281ms total)
T4A44 010:579 JLINK_ReadReg(MSP)  returns 0x20001FE8 (0000ms, 0281ms total)
T4A44 010:579 JLINK_ReadReg(PSP)  returns 0x20001000 (0000ms, 0281ms total)
T4A44 010:579 JLINK_ReadReg(CFBP)  returns 0x00000000 (0000ms, 0281ms total)
T32F8 010:597 JLINK_ReadMem (0x08008FBC, 0x003C Bytes, ...) -- CPU_ReadMem(128 bytes @ 0x08008F80) -- Updating C cache (128 bytes @ 0x08008F80) -- Read from C cache (60 bytes @ 0x08008FBC) - Data: BD E8 F8 8F 00 00 F7 FF 00 00 FF FF 00 00 FB FF ...  returns 0x00 (0002ms, 0284ms total)
T4A44 027:251 JLINK_SetBPEx(Addr = 0x08004778, Type = 0xFFFFFFF2)  returns 0x00000006 (0000ms, 0284ms total)
T4A44 027:251 JLINK_SetBPEx(Addr = 0x08008FEC, Type = 0xFFFFFFF2)  returns 0x00000007 (0000ms, 0284ms total)
T4A44 027:251 JLINK_Go() -- CPU_ReadMem(4 bytes @ 0xE0001000) -- CPU_WriteMem(4 bytes @ 0xE0002008) -- CPU_WriteMem(4 bytes @ 0xE000200C) -- CPU_WriteMem(4 bytes @ 0xE0001004) (0002ms, 0286ms total)
T4A44 027:353 JLINK_IsHalted()  returns TRUE (0002ms, 0288ms total)
T4A44 027:355 JLINK_Halt()  returns 0x00 (0000ms, 0286ms total)
T4A44 027:355 JLINK_IsHalted()  returns TRUE (0000ms, 0286ms total)
T4A44 027:355 JLINK_IsHalted()  returns TRUE (0000ms, 0286ms total)
T4A44 027:355 JLINK_IsHalted()  returns TRUE (0000ms, 0286ms total)
T4A44 027:355 JLINK_ReadReg(R15 (PC))  returns 0x08008FEC (0000ms, 0286ms total)
T4A44 027:355 JLINK_ReadReg(XPSR)  returns 0x81000000 (0000ms, 0286ms total)
T4A44 027:355 JLINK_ClrBPEx(BPHandle = 0x00000006)  returns 0x00 (0000ms, 0286ms total)
T4A44 027:355 JLINK_ClrBPEx(BPHandle = 0x00000007)  returns 0x00 (0000ms, 0286ms total)
T4A44 027:355 JLINK_ReadMemU32(0xE000ED30, 0x0001 Items, ...) -- CPU_ReadMem(4 bytes @ 0xE000ED30) - Data: 02 00 00 00  returns 0x01 (0001ms, 0287ms total)
T4A44 027:356 JLINK_ReadMemU32(0xE0001028, 0x0001 Items, ...) -- CPU_ReadMem(4 bytes @ 0xE0001028) - Data: 00 00 00 00  returns 0x01 (0000ms, 0287ms total)
T4A44 027:356 JLINK_ReadMemU32(0xE0001038, 0x0001 Items, ...) -- CPU_ReadMem(4 bytes @ 0xE0001038) - Data: 00 02 00 00  returns 0x01 (0000ms, 0287ms total)
T4A44 027:356 JLINK_ReadMemU32(0xE0001048, 0x0001 Items, ...) -- CPU_ReadMem(4 bytes @ 0xE0001048) - Data: 00 00 00 00  returns 0x01 (0001ms, 0288ms total)
T4A44 027:357 JLINK_ReadMemU32(0xE0001058, 0x0001 Items, ...) -- CPU_ReadMem(4 bytes @ 0xE0001058) - Data: 00 00 00 00  returns 0x01 (0000ms, 0288ms total)
T4A44 027:358 JLINK_ReadReg(R0)  returns 0x20001FDC (0000ms, 0288ms total)
T4A44 027:358 JLINK_ReadReg(R1)  returns 0x08049128 (0000ms, 0288ms total)
T4A44 027:358 JLINK_ReadReg(R2)  returns 0xFFFFFFFF (0000ms, 0288ms total)
T4A44 027:358 JLINK_ReadReg(R3)  returns 0x00000000 (0000ms, 0288ms total)
T4A44 027:358 JLINK_ReadReg(R4)  returns 0x680190F0 (0000ms, 0288ms total)
T4A44 027:358 JLINK_ReadReg(R5)  returns 0x680190F0 (0000ms, 0288ms total)
T4A44 027:358 JLINK_ReadReg(R6)  returns 0x00000000 (0000ms, 0288ms total)
T4A44 027:358 JLINK_ReadReg(R7)  returns 0x00000000 (0000ms, 0288ms total)
T4A44 027:358 JLINK_ReadReg(R8)  returns 0x00000000 (0000ms, 0288ms total)
T4A44 027:358 JLINK_ReadReg(R9)  returns 0x20000160 (0000ms, 0288ms total)
T4A44 027:359 JLINK_ReadReg(R10)  returns 0x00000000 (0000ms, 0288ms total)
T4A44 027:359 JLINK_ReadReg(R11)  returns 0x00000000 (0000ms, 0288ms total)
T4A44 027:359 JLINK_ReadReg(R12)  returns 0x00000032 (0000ms, 0288ms total)
T4A44 027:359 JLINK_ReadReg(R13 (SP))  returns 0x20001F18 (0000ms, 0288ms total)
T4A44 027:359 JLINK_ReadReg(R14)  returns 0x08008FED (0000ms, 0288ms total)
T4A44 027:359 JLINK_ReadReg(R15 (PC))  returns 0x08008FEC (0000ms, 0288ms total)
T4A44 027:359 JLINK_ReadReg(XPSR)  returns 0x81000000 (0000ms, 0288ms total)
T4A44 027:359 JLINK_ReadReg(MSP)  returns 0x20001F18 (0000ms, 0288ms total)
T4A44 027:359 JLINK_ReadReg(PSP)  returns 0x20001000 (0000ms, 0288ms total)
T4A44 027:359 JLINK_ReadReg(CFBP)  returns 0x00000000 (0000ms, 0288ms total)
T32F8 027:368 JLINK_ReadMem (0x08008FE2, 0x0002 Bytes, ...) -- CPU_ReadMem(64 bytes @ 0x08008FC0) -- Updating C cache (64 bytes @ 0x08008FC0) -- Read from C cache (2 bytes @ 0x08008FE2) - Data: C0 22  returns 0x00 (0001ms, 0289ms total)
T32F8 027:369 JLINK_ReadMem (0x08008FE4, 0x001C Bytes, ...) -- Read from C cache (28 bytes @ 0x08008FE4) - Data: 2B 49 01 A8 1C F0 AA FD 01 A9 20 46 2A F0 AA F9 ...  returns 0x00 (0000ms, 0289ms total)
T32F8 027:369 JLINK_ReadMem (0x08009000, 0x0020 Bytes, ...) -- CPU_ReadMem(64 bytes @ 0x08009000) -- Updating C cache (64 bytes @ 0x08009000) -- Read from C cache (32 bytes @ 0x08009000) - Data: 31 B0 30 BD 10 B5 0D F0 C5 F8 04 46 00 F0 56 FF ...  returns 0x00 (0001ms, 0290ms total)
T4A44 028:734 JLINK_Step() -- Read from C cache (2 bytes @ 0x08008FEC) -- CPU_ReadMem(4 bytes @ 0xE0001004) -- Simulated  returns 0x00 (0001ms, 0291ms total)
T4A44 028:735 JLINK_ReadReg(R15 (PC))  returns 0x08008FEE (0000ms, 0291ms total)
T4A44 028:735 JLINK_ReadReg(XPSR)  returns 0x81000000 (0000ms, 0291ms total)
T4A44 028:735 JLINK_Step() -- Read from C cache (2 bytes @ 0x08008FEE) -- Simulated  returns 0x00 (0001ms, 0292ms total)
T4A44 028:736 JLINK_ReadReg(R15 (PC))  returns 0x08008FF0 (0000ms, 0292ms total)
T4A44 028:736 JLINK_ReadReg(XPSR)  returns 0x81000000 (0000ms, 0292ms total)
T4A44 028:736 JLINK_Step() -- Read from C cache (2 bytes @ 0x08008FF0) -- Read from C cache (2 bytes @ 0x08008FF2) -- Simulated  returns 0x00 (0000ms, 0292ms total)
T4A44 028:736 JLINK_ReadReg(R15 (PC))  returns 0x08033348 (0000ms, 0292ms total)
T4A44 028:736 JLINK_ReadReg(XPSR)  returns 0x81000000 (0000ms, 0292ms total)
T4A44 028:736 JLINK_Step() -- CPU_ReadMem(64 bytes @ 0x08033340) -- Updating C cache (64 bytes @ 0x08033340) -- Read from C cache (2 bytes @ 0x08033348) -- Read from C cache (2 bytes @ 0x0803334A) -- Not simulated -- CPU_WriteMem(4 bytes @ 0xE0002008) -- CPU_WriteMem(4 bytes @ 0xE000200C) -- CPU_WriteMem(4 bytes @ 0xE0001004)  returns 0x00 (0003ms, 0295ms total)
T4A44 028:739 JLINK_ReadReg(R15 (PC))  returns 0x0803334C (0000ms, 0295ms total)
T4A44 028:739 JLINK_ReadReg(XPSR)  returns 0x81000000 (0000ms, 0295ms total)
T4A44 028:739 JLINK_Step() -- CPU_ReadMem(64 bytes @ 0x08033340) -- Updating C cache (64 bytes @ 0x08033340) -- Read from C cache (2 bytes @ 0x0803334C) -- CPU_ReadMem(4 bytes @ 0xE0001004) -- Simulated  returns 0x00 (0001ms, 0296ms total)
T4A44 028:740 JLINK_ReadReg(R15 (PC))  returns 0x0803334E (0000ms, 0296ms total)
T4A44 028:740 JLINK_ReadReg(XPSR)  returns 0x81000000 (0000ms, 0296ms total)
T4A44 028:740 JLINK_Step() -- Read from C cache (2 bytes @ 0x0803334E) -- Simulated  returns 0x00 (0000ms, 0296ms total)
T4A44 028:740 JLINK_ReadReg(R15 (PC))  returns 0x08033350 (0000ms, 0296ms total)
T4A44 028:740 JLINK_ReadReg(XPSR)  returns 0x81000000 (0000ms, 0296ms total)
T4A44 028:740 JLINK_Step() -- Read from C cache (2 bytes @ 0x08033350) -- Simulated  returns 0x00 (0000ms, 0296ms total)
T4A44 028:740 JLINK_ReadReg(R15 (PC))  returns 0x08033358 (0000ms, 0296ms total)
T4A44 028:740 JLINK_ReadReg(XPSR)  returns 0x81000000 (0000ms, 0296ms total)
T4A44 028:741 JLINK_SetBPEx(Addr = 0x08008FF4, Type = 0xFFFFFFF2)  returns 0x00000008 (0000ms, 0296ms total)
T4A44 028:741 JLINK_SetBPEx(Addr = 0x08004778, Type = 0xFFFFFFF2)  returns 0x00000009 (0000ms, 0296ms total)
T4A44 028:741 JLINK_SetBPEx(Addr = 0x08008FEC, Type = 0xFFFFFFF2)  returns 0x0000000A (0000ms, 0296ms total)
T4A44 028:741 JLINK_Go() -- CPU_ReadMem(4 bytes @ 0xE0001000) -- CPU_WriteMem(4 bytes @ 0xE0002008) -- CPU_WriteMem(4 bytes @ 0xE000200C) -- CPU_WriteMem(4 bytes @ 0xE0002010) -- CPU_WriteMem(4 bytes @ 0xE0001004) (0002ms, 0298ms total)
T4A44 028:844 JLINK_IsHalted()  returns TRUE (0001ms, 0299ms total)
T4A44 028:845 JLINK_Halt()  returns 0x00 (0000ms, 0298ms total)
T4A44 028:845 JLINK_IsHalted()  returns TRUE (0000ms, 0298ms total)
T4A44 028:845 JLINK_IsHalted()  returns TRUE (0000ms, 0298ms total)
T4A44 028:845 JLINK_IsHalted()  returns TRUE (0000ms, 0298ms total)
T4A44 028:845 JLINK_ReadReg(R15 (PC))  returns 0x08008FF4 (0000ms, 0298ms total)
T4A44 028:845 JLINK_ReadReg(XPSR)  returns 0x61000000 (0000ms, 0298ms total)
T4A44 028:845 JLINK_ClrBPEx(BPHandle = 0x00000008)  returns 0x00 (0000ms, 0298ms total)
T4A44 028:845 JLINK_ClrBPEx(BPHandle = 0x00000009)  returns 0x00 (0000ms, 0298ms total)
T4A44 028:845 JLINK_ClrBPEx(BPHandle = 0x0000000A)  returns 0x00 (0000ms, 0298ms total)
T4A44 028:845 JLINK_ReadMemU32(0xE000ED30, 0x0001 Items, ...) -- CPU_ReadMem(4 bytes @ 0xE000ED30) - Data: 02 00 00 00  returns 0x01 (0000ms, 0298ms total)
T4A44 028:845 JLINK_ReadMemU32(0xE0001028, 0x0001 Items, ...) -- CPU_ReadMem(4 bytes @ 0xE0001028) - Data: 00 00 00 00  returns 0x01 (0001ms, 0299ms total)
T4A44 028:846 JLINK_ReadMemU32(0xE0001038, 0x0001 Items, ...) -- CPU_ReadMem(4 bytes @ 0xE0001038) - Data: 00 02 00 00  returns 0x01 (0000ms, 0299ms total)
T4A44 028:846 JLINK_ReadMemU32(0xE0001048, 0x0001 Items, ...) -- CPU_ReadMem(4 bytes @ 0xE0001048) - Data: 00 00 00 00  returns 0x01 (0000ms, 0299ms total)
T4A44 028:846 JLINK_ReadMemU32(0xE0001058, 0x0001 Items, ...) -- CPU_ReadMem(4 bytes @ 0xE0001058) - Data: 00 00 00 00  returns 0x01 (0001ms, 0300ms total)
T4A44 028:847 JLINK_ReadReg(R0)  returns 0x00000000 (0000ms, 0300ms total)
T4A44 028:847 JLINK_ReadReg(R1)  returns 0x68031460 (0000ms, 0300ms total)
T4A44 028:847 JLINK_ReadReg(R2)  returns 0x00000000 (0000ms, 0300ms total)
T4A44 028:847 JLINK_ReadReg(R3)  returns 0xFFF20000 (0000ms, 0300ms total)
T4A44 028:847 JLINK_ReadReg(R4)  returns 0x680190F0 (0000ms, 0300ms total)
T4A44 028:847 JLINK_ReadReg(R5)  returns 0x680190F0 (0000ms, 0300ms total)
T4A44 028:847 JLINK_ReadReg(R6)  returns 0x00000000 (0000ms, 0300ms total)
T4A44 028:847 JLINK_ReadReg(R7)  returns 0x00000000 (0000ms, 0300ms total)
T4A44 028:847 JLINK_ReadReg(R8)  returns 0x00000000 (0000ms, 0300ms total)
T4A44 028:847 JLINK_ReadReg(R9)  returns 0x20000160 (0000ms, 0300ms total)
T4A44 028:847 JLINK_ReadReg(R10)  returns 0x00000000 (0000ms, 0300ms total)
T4A44 028:847 JLINK_ReadReg(R11)  returns 0x00000000 (0000ms, 0300ms total)
T4A44 028:847 JLINK_ReadReg(R12)  returns 0x00000032 (0000ms, 0300ms total)
T4A44 028:847 JLINK_ReadReg(R13 (SP))  returns 0x20001F18 (0000ms, 0300ms total)
T4A44 028:847 JLINK_ReadReg(R14)  returns 0x08033AA7 (0000ms, 0300ms total)
T4A44 028:847 JLINK_ReadReg(R15 (PC))  returns 0x08008FF4 (0000ms, 0300ms total)
T4A44 028:847 JLINK_ReadReg(XPSR)  returns 0x61000000 (0001ms, 0301ms total)
T4A44 028:848 JLINK_ReadReg(MSP)  returns 0x20001F18 (0000ms, 0301ms total)
T4A44 028:848 JLINK_ReadReg(PSP)  returns 0x20001000 (0000ms, 0301ms total)
T4A44 028:848 JLINK_ReadReg(CFBP)  returns 0x00000000 (0000ms, 0301ms total)
T32F8 028:860 JLINK_ReadMem (0x08008FF4, 0x000C Bytes, ...) -- CPU_ReadMem(64 bytes @ 0x08008FC0) -- Updating C cache (64 bytes @ 0x08008FC0) -- Read from C cache (12 bytes @ 0x08008FF4) - Data: 28 49 20 46 34 F0 1C FD 05 46 28 46  returns 0x00 (0000ms, 0301ms total)
T32F8 028:860 JLINK_ReadMem (0x08009000, 0x0030 Bytes, ...) -- CPU_ReadMem(64 bytes @ 0x08009000) -- Updating C cache (64 bytes @ 0x08009000) -- Read from C cache (48 bytes @ 0x08009000) - Data: 31 B0 30 BD 10 B5 0D F0 C5 F8 04 46 00 F0 56 FF ...  returns 0x00 (0001ms, 0302ms total)
T32F8 040:385 JLINK_ReadMem (0x08008FEC, 0x0014 Bytes, ...) -- Read from C cache (20 bytes @ 0x08008FEC) - Data: 01 A9 20 46 2A F0 AA F9 28 49 20 46 34 F0 1C FD ...  returns 0x00 (0000ms, 0302ms total)
T32F8 040:385 JLINK_ReadMem (0x08009000, 0x0028 Bytes, ...) -- Read from C cache (40 bytes @ 0x08009000) - Data: 31 B0 30 BD 10 B5 0D F0 C5 F8 04 46 00 F0 56 FF ...  returns 0x00 (0000ms, 0302ms total)
T32F8 066:177 JLINK_ReadMem (0x08010FE1, 0x0002 Bytes, ...) -- CPU_ReadMem(64 bytes @ 0x08010FC0) -- Updating C cache (64 bytes @ 0x08010FC0) -- Read from C cache (2 bytes @ 0x08010FE1) - Data: D1 DD  returns 0x00 (0001ms, 0303ms total)
T32F8 066:178 JLINK_ReadMem (0x08010FE3, 0x0002 Bytes, ...) -- Read from C cache (2 bytes @ 0x08010FE3) - Data: E9 1D  returns 0x00 (0000ms, 0303ms total)
T32F8 066:178 JLINK_ReadMem (0x08010FE5, 0x0002 Bytes, ...) -- Read from C cache (2 bytes @ 0x08010FE5) - Data: 01 08  returns 0x00 (0000ms, 0303ms total)
T32F8 066:178 JLINK_ReadMem (0x08010FE7, 0x0002 Bytes, ...) -- Read from C cache (2 bytes @ 0x08010FE7) - Data: 1A 07  returns 0x00 (0000ms, 0303ms total)
T32F8 066:178 JLINK_ReadMem (0x08010FE9, 0x0002 Bytes, ...) -- Read from C cache (2 bytes @ 0x08010FE9) - Data: 28 4F  returns 0x00 (0000ms, 0303ms total)
T32F8 066:178 JLINK_ReadMem (0x08010FEB, 0x0002 Bytes, ...) -- Read from C cache (2 bytes @ 0x08010FEB) - Data: D1 1D  returns 0x00 (0000ms, 0303ms total)
T32F8 066:178 JLINK_ReadMem (0x08010FED, 0x0002 Bytes, ...) -- Read from C cache (2 bytes @ 0x08010FED) - Data: 99 08  returns 0x00 (0000ms, 0303ms total)
T32F8 066:178 JLINK_ReadMem (0x08010FEF, 0x0002 Bytes, ...) -- Read from C cache (2 bytes @ 0x08010FEF) - Data: 98 08  returns 0x00 (0000ms, 0303ms total)
T32F8 066:178 JLINK_ReadMem (0x08010FF1, 0x0002 Bytes, ...) -- Read from C cache (2 bytes @ 0x08010FF1) - Data: 44 01  returns 0x00 (0000ms, 0303ms total)
T32F8 066:178 JLINK_ReadMem (0x08010FF3, 0x0002 Bytes, ...) -- Read from C cache (2 bytes @ 0x08010FF3) - Data: 68 04  returns 0x00 (0000ms, 0303ms total)
T32F8 066:178 JLINK_ReadMem (0x08010FF5, 0x0002 Bytes, ...) -- Read from C cache (2 bytes @ 0x08010FF5) - Data: 91 80  returns 0x00 (0000ms, 0303ms total)
T32F8 066:178 JLINK_ReadMem (0x08010FF7, 0x0002 Bytes, ...) -- Read from C cache (2 bytes @ 0x08010FF7) - Data: 88 AD  returns 0x00 (0000ms, 0303ms total)
T32F8 066:178 JLINK_ReadMem (0x08010FF9, 0x0002 Bytes, ...) -- Read from C cache (2 bytes @ 0x08010FF9) - Data: F8 14  returns 0x00 (0000ms, 0303ms total)
T32F8 066:178 JLINK_ReadMem (0x08010FFB, 0x0002 Bytes, ...) -- Read from C cache (2 bytes @ 0x08010FFB) - Data: 00 00  returns 0x00 (0000ms, 0303ms total)
T32F8 066:178 JLINK_ReadMem (0x08010FFD, 0x0002 Bytes, ...) -- Read from C cache (2 bytes @ 0x08010FFD) - Data: 20 8D  returns 0x00 (0000ms, 0303ms total)
T32F8 066:179 JLINK_ReadMem (0x08010FFF, 0x0001 Bytes, ...) -- Read from C cache (1 bytes @ 0x08010FFF) - Data: F8  returns 0x00 (0000ms, 0303ms total)
T32F8 066:179 JLINK_ReadMem (0x08011000, 0x0001 Bytes, ...) -- CPU_ReadMem(64 bytes @ 0x08011000) -- Updating C cache (64 bytes @ 0x08011000) -- Read from C cache (1 bytes @ 0x08011000) - Data: 16  returns 0x00 (0001ms, 0304ms total)
T32F8 066:180 JLINK_ReadMem (0x08011001, 0x0002 Bytes, ...) -- Read from C cache (2 bytes @ 0x08011001) - Data: 00 9D  returns 0x00 (0000ms, 0304ms total)
T32F8 066:180 JLINK_ReadMem (0x08011003, 0x0002 Bytes, ...) -- Read from C cache (2 bytes @ 0x08011003) - Data: F8 11  returns 0x00 (0000ms, 0304ms total)
T32F8 066:180 JLINK_ReadMem (0x08011005, 0x0002 Bytes, ...) -- Read from C cache (2 bytes @ 0x08011005) - Data: 00 FF  returns 0x00 (0000ms, 0304ms total)
T32F8 066:180 JLINK_ReadMem (0x08011007, 0x0002 Bytes, ...) -- Read from C cache (2 bytes @ 0x08011007) - Data: F7 41  returns 0x00 (0000ms, 0304ms total)
T32F8 066:180 JLINK_ReadMem (0x08011009, 0x0002 Bytes, ...) -- Read from C cache (2 bytes @ 0x08011009) - Data: FE 83  returns 0x00 (0000ms, 0304ms total)
T32F8 066:180 JLINK_ReadMem (0x0801100B, 0x0002 Bytes, ...) -- Read from C cache (2 bytes @ 0x0801100B) - Data: 46 9D  returns 0x00 (0000ms, 0304ms total)
T32F8 066:180 JLINK_ReadMem (0x0801100D, 0x0002 Bytes, ...) -- Read from C cache (2 bytes @ 0x0801100D) - Data: F8 10  returns 0x00 (0000ms, 0304ms total)
T32F8 066:429 JLINK_ReadMem (0x08010FDC, 0x0024 Bytes, ...) -- Read from C cache (36 bytes @ 0x08010FDC) - Data: 0A 98 20 28 58 D1 DD E9 1D 01 08 1A 07 28 4F D1 ...  returns 0x00 (0000ms, 0304ms total)
T32F8 066:429 JLINK_ReadMem (0x08011000, 0x0018 Bytes, ...) -- Read from C cache (24 bytes @ 0x08011000) - Data: 16 00 9D F8 11 00 FF F7 41 FE 83 46 9D F8 10 00 ...  returns 0x00 (0000ms, 0304ms total)
T32F8 074:009 JLINK_ReadMem (0x08018FD1, 0x0002 Bytes, ...) -- CPU_ReadMem(64 bytes @ 0x08018FC0) -- Updating C cache (64 bytes @ 0x08018FC0) -- Read from C cache (2 bytes @ 0x08018FD1) - Data: 23 22  returns 0x00 (0000ms, 0304ms total)
T32F8 074:009 JLINK_ReadMem (0x08018FD3, 0x0002 Bytes, ...) -- Read from C cache (2 bytes @ 0x08018FD3) - Data: A0 F0  returns 0x00 (0000ms, 0304ms total)
T32F8 074:009 JLINK_ReadMem (0x08018FD5, 0x0002 Bytes, ...) -- Read from C cache (2 bytes @ 0x08018FD5) - Data: F7 32  returns 0x00 (0000ms, 0304ms total)
T32F8 074:009 JLINK_ReadMem (0x08018FD7, 0x0002 Bytes, ...) -- Read from C cache (2 bytes @ 0x08018FD7) - Data: FF 00  returns 0x00 (0000ms, 0304ms total)
T32F8 074:009 JLINK_ReadMem (0x08018FD9, 0x0002 Bytes, ...) -- Read from C cache (2 bytes @ 0x08018FD9) - Data: BF FE  returns 0x00 (0000ms, 0304ms total)
T32F8 074:009 JLINK_ReadMem (0x08018FDB, 0x0002 Bytes, ...) -- Read from C cache (2 bytes @ 0x08018FDB) - Data: E7 14  returns 0x00 (0000ms, 0304ms total)
T32F8 074:009 JLINK_ReadMem (0x08018FDD, 0x0002 Bytes, ...) -- Read from C cache (2 bytes @ 0x08018FDD) - Data: B9 00  returns 0x00 (0001ms, 0305ms total)
T32F8 074:010 JLINK_ReadMem (0x08018FDF, 0x0002 Bytes, ...) -- Read from C cache (2 bytes @ 0x08018FDF) - Data: 20 BD  returns 0x00 (0000ms, 0305ms total)
T32F8 074:010 JLINK_ReadMem (0x08018FE1, 0x0002 Bytes, ...) -- Read from C cache (2 bytes @ 0x08018FE1) - Data: E8 F0  returns 0x00 (0000ms, 0305ms total)
T32F8 074:010 JLINK_ReadMem (0x08018FE3, 0x0002 Bytes, ...) -- Read from C cache (2 bytes @ 0x08018FE3) - Data: 81 29  returns 0x00 (0000ms, 0305ms total)
T32F8 074:010 JLINK_ReadMem (0x08018FE5, 0x0002 Bytes, ...) -- Read from C cache (2 bytes @ 0x08018FE5) - Data: 46 20  returns 0x00 (0000ms, 0305ms total)
T32F8 074:010 JLINK_ReadMem (0x08018FE7, 0x0002 Bytes, ...) -- Read from C cache (2 bytes @ 0x08018FE7) - Data: 46 FF  returns 0x00 (0000ms, 0305ms total)
T32F8 074:010 JLINK_ReadMem (0x08018FE9, 0x0002 Bytes, ...) -- Read from C cache (2 bytes @ 0x08018FE9) - Data: F7 E2  returns 0x00 (0000ms, 0305ms total)
T32F8 074:010 JLINK_ReadMem (0x08018FEB, 0x0002 Bytes, ...) -- Read from C cache (2 bytes @ 0x08018FEB) - Data: FF 41  returns 0x00 (0000ms, 0305ms total)
T32F8 074:010 JLINK_ReadMem (0x08018FED, 0x0002 Bytes, ...) -- Read from C cache (2 bytes @ 0x08018FED) - Data: 46 20  returns 0x00 (0000ms, 0305ms total)
T32F8 074:010 JLINK_ReadMem (0x08018FEF, 0x0002 Bytes, ...) -- Read from C cache (2 bytes @ 0x08018FEF) - Data: 46 FF  returns 0x00 (0000ms, 0305ms total)
T32F8 074:010 JLINK_ReadMem (0x08018FF1, 0x0002 Bytes, ...) -- Read from C cache (2 bytes @ 0x08018FF1) - Data: F7 DC  returns 0x00 (0000ms, 0305ms total)
T32F8 074:010 JLINK_ReadMem (0x08018FF3, 0x0002 Bytes, ...) -- Read from C cache (2 bytes @ 0x08018FF3) - Data: FF 31  returns 0x00 (0000ms, 0305ms total)
T32F8 074:010 JLINK_ReadMem (0x08018FF5, 0x0002 Bytes, ...) -- Read from C cache (2 bytes @ 0x08018FF5) - Data: 46 20  returns 0x00 (0000ms, 0305ms total)
T32F8 074:010 JLINK_ReadMem (0x08018FF7, 0x0002 Bytes, ...) -- Read from C cache (2 bytes @ 0x08018FF7) - Data: 46 FF  returns 0x00 (0000ms, 0305ms total)
T32F8 074:010 JLINK_ReadMem (0x08018FF9, 0x0002 Bytes, ...) -- Read from C cache (2 bytes @ 0x08018FF9) - Data: F7 A9  returns 0x00 (0000ms, 0305ms total)
T32F8 074:010 JLINK_ReadMem (0x08018FFB, 0x0002 Bytes, ...) -- Read from C cache (2 bytes @ 0x08018FFB) - Data: FF E7  returns 0x00 (0000ms, 0305ms total)
T32F8 074:010 JLINK_ReadMem (0x08018FFD, 0x0002 Bytes, ...) -- Read from C cache (2 bytes @ 0x08018FFD) - Data: 60 20  returns 0x00 (0000ms, 0305ms total)
T32F8 074:011 JLINK_ReadMem (0x08018FFF, 0x0001 Bytes, ...) -- Read from C cache (1 bytes @ 0x08018FFF) - Data: 46  returns 0x00 (0000ms, 0305ms total)
T32F8 074:011 JLINK_ReadMem (0x08019000, 0x0001 Bytes, ...) -- CPU_ReadMem(64 bytes @ 0x08019000) -- Updating C cache (64 bytes @ 0x08019000) -- Read from C cache (1 bytes @ 0x08019000) - Data: EE  returns 0x00 (0000ms, 0305ms total)
T32F8 074:011 JLINK_ReadMem (0x08019001, 0x0002 Bytes, ...) -- Read from C cache (2 bytes @ 0x08019001) - Data: E7 10  returns 0x00 (0000ms, 0305ms total)
T32F8 074:011 JLINK_ReadMem (0x08019003, 0x0002 Bytes, ...) -- Read from C cache (2 bytes @ 0x08019003) - Data: B5 04  returns 0x00 (0000ms, 0305ms total)
T32F8 074:011 JLINK_ReadMem (0x08019005, 0x0002 Bytes, ...) -- Read from C cache (2 bytes @ 0x08019005) - Data: 46 FD  returns 0x00 (0000ms, 0305ms total)
T32F8 074:011 JLINK_ReadMem (0x08019007, 0x0002 Bytes, ...) -- Read from C cache (2 bytes @ 0x08019007) - Data: F7 42  returns 0x00 (0000ms, 0305ms total)
T32F8 074:012 JLINK_ReadMem (0x08019009, 0x0002 Bytes, ...) -- Read from C cache (2 bytes @ 0x08019009) - Data: FA 21  returns 0x00 (0000ms, 0305ms total)
T32F8 074:012 JLINK_ReadMem (0x0801900B, 0x0002 Bytes, ...) -- Read from C cache (2 bytes @ 0x0801900B) - Data: 68 40  returns 0x00 (0000ms, 0305ms total)
T32F8 074:299 JLINK_ReadMem (0x08018FC6, 0x0002 Bytes, ...) -- Read from C cache (2 bytes @ 0x08018FC6) - Data: 20 46  returns 0x00 (0000ms, 0305ms total)
T32F8 074:299 JLINK_ReadMem (0x08018FC8, 0x0038 Bytes, ...) -- Read from C cache (56 bytes @ 0x08018FC8) - Data: F0 F7 98 FE 30 B9 22 46 00 23 22 A0 F0 F7 32 FF ...  returns 0x00 (0000ms, 0305ms total)
T32F8 074:299 JLINK_ReadMem (0x08019000, 0x0004 Bytes, ...) -- Read from C cache (4 bytes @ 0x08019000) - Data: EE E7 10 B5  returns 0x00 (0000ms, 0305ms total)
T32F8 075:923 JLINK_ReadMem (0x08020FBB, 0x0002 Bytes, ...) -- CPU_ReadMem(64 bytes @ 0x08020F80) -- Updating C cache (64 bytes @ 0x08020F80) -- Read from C cache (2 bytes @ 0x08020FBB) - Data: BF FE  returns 0x00 (0001ms, 0306ms total)
T32F8 075:924 JLINK_ReadMem (0x08020FBD, 0x0002 Bytes, ...) -- Read from C cache (2 bytes @ 0x08020FBD) - Data: E7 30  returns 0x00 (0000ms, 0306ms total)
